# Hz S DB R 50
! CMT, S5243, 23023023, 22.3.3/5
! Date: 6/29/2023 10:12:38 AM
! Data: Format (Calibration Info)
! Freq	S11:dB/Ang(F2)	S21:dB/Ang(F2)	S12:dB/Ang(F2)	S22:dB/Ang(F2)
1.00000000000E+07	-1.35411136873E+01	1.04371760362E+02	-4.49393822348E+01	5.78848588687E+00	-4.49576477818E+01	5.78792885631E+00	5.72525669277E-03	1.78220892603E+02
1.00380000000E+07	-1.36385999128E+01	1.04258683069E+02	-4.49170336448E+01	5.58219942249E+00	-4.49422812858E+01	5.58878746117E+00	6.47290166942E-03	1.78214353782E+02
1.00760000000E+07	-1.37370665462E+01	1.04144720780E+02	-4.49091585559E+01	5.49813650177E+00	-4.49180217222E+01	5.50007623033E+00	6.73786338868E-03	1.78207868075E+02
1.01140000000E+07	-1.38370244763E+01	1.04047686323E+02	-4.48793584856E+01	5.31979842793E+00	-4.49093845880E+01	5.36624899965E+00	6.34466049056E-03	1.78195821974E+02
1.01520000000E+07	-1.39365193892E+01	1.03936009887E+02	-4.48619283726E+01	5.22295958889E+00	-4.48780248605E+01	5.17018651204E+00	7.88849102797E-03	1.78199270387E+02
1.01900000000E+07	-1.40390868201E+01	1.03833113129E+02	-4.48495846620E+01	5.07094548700E+00	-4.48568090125E+01	4.99385943607E+00	6.30734674294E-03	1.78190282730E+02
1.02280000000E+07	-1.41419424939E+01	1.03727995759E+02	-4.48389290281E+01	4.96465748673E+00	-4.48470851518E+01	4.93299878251E+00	7.08966621260E-03	1.78180547380E+02
1.02660000000E+07	-1.42447241093E+01	1.03629149991E+02	-4.48213221317E+01	4.71865488424E+00	-4.48257320574E+01	4.77800280857E+00	7.19859940876E-03	1.78176498327E+02
1.03040000000E+07	-1.43483561582E+01	1.03525427253E+02	-4.47762892652E+01	4.64375904068E+00	-4.47885397441E+01	4.67867202170E+00	7.07928700762E-03	1.78167396618E+02
1.03420000000E+07	-1.44543589676E+01	1.03430658531E+02	-4.47695494217E+01	4.53763631161E+00	-4.47772564333E+01	4.44432706221E+00	7.58046540721E-03	1.78163597775E+02
1.03800000000E+07	-1.45611514707E+01	1.03322535987E+02	-4.47620433535E+01	4.37298092597E+00	-4.47710067525E+01	4.35794511204E+00	7.35237817688E-03	1.78155104289E+02
1.04180000000E+07	-1.46703184368E+01	1.03221648989E+02	-4.47414749076E+01	4.23455721494E+00	-4.47492908302E+01	4.21063538481E+00	6.93943008647E-03	1.78149407458E+02
1.04560000000E+07	-1.47770819503E+01	1.03138153566E+02	-4.47267865120E+01	4.03725315583E+00	-4.47284185246E+01	4.03069684029E+00	6.49595372613E-03	1.78144194904E+02
1.04940000000E+07	-1.48893575327E+01	1.03034722964E+02	-4.47038699546E+01	3.93330966938E+00	-4.47131900035E+01	3.95644356080E+00	7.18611851406E-03	1.78133943292E+02
1.05320000000E+07	-1.49982543209E+01	1.02943073558E+02	-4.46887277159E+01	3.76558208455E+00	-4.46995870439E+01	3.81955213215E+00	6.12895564964E-03	1.78134451990E+02
1.05700000000E+07	-1.51120457683E+01	1.02856332263E+02	-4.46718342526E+01	3.68282288360E+00	-4.46783684023E+01	3.61470728231E+00	5.86283652851E-03	1.78124103904E+02
1.06080000000E+07	-1.52256459897E+01	1.02777375130E+02	-4.46524140957E+01	3.51440471508E+00	-4.46588113597E+01	3.48106275455E+00	6.24772609018E-03	1.78112999721E+02
1.06460000000E+07	-1.53388725365E+01	1.02682977475E+02	-4.46241000917E+01	3.33686737891E+00	-4.46429845702E+01	3.34109590440E+00	6.48724687670E-03	1.78110929566E+02
1.06840000000E+07	-1.54567685560E+01	1.02588245238E+02	-4.46054202423E+01	3.23725021360E+00	-4.46250391015E+01	3.19860050322E+00	6.70590926752E-03	1.78103914693E+02
1.07220000000E+07	-1.55745785432E+01	1.02517998320E+02	-4.45879829940E+01	3.03976179962E+00	-4.46073733467E+01	3.06715810292E+00	6.88373355120E-03	1.78093823383E+02
1.07600000000E+07	-1.56924873385E+01	1.02426642526E+02	-4.45779737293E+01	2.92880380728E+00	-4.45925645997E+01	2.92508068152E+00	6.26313543986E-03	1.78091808009E+02
1.07980000000E+07	-1.58129208552E+01	1.02353851254E+02	-4.45497909864E+01	2.81282243163E+00	-4.45687712799E+01	2.82623779341E+00	6.35816555665E-03	1.78080463515E+02
1.08360000000E+07	-1.59338284655E+01	1.02280659551E+02	-4.45313039860E+01	2.68859786353E+00	-4.45508320848E+01	2.57335016347E+00	6.99524376516E-03	1.78073357009E+02
1.08740000000E+07	-1.60556520322E+01	1.02214224523E+02	-4.45178091601E+01	2.48865694517E+00	-4.45210466622E+01	2.53664504568E+00	7.71196332611E-03	1.78067821628E+02
1.09120000000E+07	-1.61820723200E+01	1.02139271737E+02	-4.45029843780E+01	2.40726148233E+00	-4.45113793488E+01	2.38598092832E+00	6.82256563312E-03	1.78057516930E+02
1.09500000000E+07	-1.63061031148E+01	1.02057877235E+02	-4.44806400742E+01	2.22676459537E+00	-4.44939172722E+01	2.16056552749E+00	7.60106364391E-03	1.78056316740E+02
1.09880000000E+07	-1.64338327427E+01	1.01990947718E+02	-4.44725167335E+01	2.10214363988E+00	-4.44697509361E+01	2.05666781830E+00	6.53721356469E-03	1.78046060463E+02
1.10260000000E+07	-1.65641865423E+01	1.01923794302E+02	-4.44422770174E+01	1.95549874607E+00	-4.44636951223E+01	1.92032132158E+00	6.57789097777E-03	1.78047086632E+02
1.10640000000E+07	-1.66946350693E+01	1.01868779311E+02	-4.44188019129E+01	1.80814125216E+00	-4.44364984099E+01	1.78369988426E+00	6.51498063449E-03	1.78036130239E+02
1.11020000000E+07	-1.68262988422E+01	1.01802093586E+02	-4.44014206132E+01	1.69130961197E+00	-4.44249013437E+01	1.71331158915E+00	6.19729504859E-03	1.78031737575E+02
1.11400000000E+07	-1.69627927063E+01	1.01747146076E+02	-4.43756162098E+01	1.51084541225E+00	-4.43996943192E+01	1.55170682499E+00	5.83904730188E-03	1.78024432662E+02
1.11780000000E+07	-1.70989583045E+01	1.01689312858E+02	-4.43682498732E+01	1.48391089664E+00	-4.43850623170E+01	1.43425479994E+00	6.42533427161E-03	1.78011935672E+02
1.12160000000E+07	-1.72359273589E+01	1.01642359195E+02	-4.43409616210E+01	1.30072074144E+00	-4.43660397149E+01	1.28043223265E+00	6.25764130493E-03	1.78009811873E+02
1.12540000000E+07	-1.73783286096E+01	1.01601025813E+02	-4.43356441634E+01	1.12503806136E+00	-4.43457611683E+01	1.07920341093E+00	6.37522595626E-03	1.78002003275E+02
1.12920000000E+07	-1.75193164447E+01	1.01561408277E+02	-4.43156245310E+01	1.02033190959E+00	-4.43247205516E+01	9.59157581884E-01	5.89380799813E-03	1.77992993732E+02
1.13300000000E+07	-1.76648870503E+01	1.01506584307E+02	-4.42879196464E+01	8.43554080184E-01	-4.43073676750E+01	8.54159287378E-01	6.47910868808E-03	1.77983748217E+02
1.13680000000E+07	-1.78124003159E+01	1.01470987784E+02	-4.42578683173E+01	7.74214003115E-01	-4.42917013574E+01	7.51902871098E-01	6.64999634809E-03	1.77982691920E+02
1.14060000000E+07	-1.79602737841E+01	1.01424382000E+02	-4.42464683195E+01	5.96522928744E-01	-4.42816881602E+01	6.53970088089E-01	6.55853368463E-03	1.77976064565E+02
1.14440000000E+07	-1.81117655416E+01	1.01393991105E+02	-4.42412060323E+01	5.67229113562E-01	-4.42543428870E+01	4.26489863089E-01	5.73561782531E-03	1.77970340731E+02
1.14820000000E+07	-1.82630209776E+01	1.01384912853E+02	-4.42083405455E+01	3.87407818906E-01	-4.42275552339E+01	2.96217331614E-01	6.31553467772E-03	1.77964046038E+02
1.15200000000E+07	-1.84213992392E+01	1.01360798436E+02	-4.41911479197E+01	2.80135755203E-01	-4.42197076374E+01	2.15641074623E-01	5.96271632494E-03	1.77959516609E+02
1.15580000000E+07	-1.85796346660E+01	1.01333945464E+02	-4.41813711485E+01	1.41953772925E-01	-4.41937754273E+01	-1.08503156701E-02	5.48832135010E-03	1.77945952213E+02
1.15960000000E+07	-1.87383810146E+01	1.01318304284E+02	-4.41692431244E+01	-9.06981321486E-02	-4.41865868065E+01	-1.06564560352E-01	4.64348929871E-03	1.77944038957E+02
1.16340000000E+07	-1.89042076773E+01	1.01307245512E+02	-4.41443950731E+01	-1.98509505526E-01	-4.41602820666E+01	-2.58319612137E-01	5.39796938113E-03	1.77934960372E+02
1.16720000000E+07	-1.90705800999E+01	1.01305265325E+02	-4.41316916893E+01	-3.00387729024E-01	-4.41386900626E+01	-3.33913911319E-01	5.45856835237E-03	1.77932950276E+02
1.17100000000E+07	-1.92424447770E+01	1.01298940986E+02	-4.41020593847E+01	-4.37986781901E-01	-4.41268726138E+01	-4.29804739258E-01	5.02676923378E-03	1.77921984784E+02
1.17480000000E+07	-1.94123225986E+01	1.01298913270E+02	-4.40830378594E+01	-5.90404873887E-01	-4.41052322940E+01	-6.01233190144E-01	5.93721803214E-03	1.77913513457E+02
1.17860000000E+07	-1.95894526003E+01	1.01318941180E+02	-4.40523223904E+01	-7.64984566079E-01	-4.40878685687E+01	-7.74271124279E-01	5.58136321545E-03	1.77916554538E+02
1.18240000000E+07	-1.97686081528E+01	1.01357584127E+02	-4.40326125470E+01	-8.34203828078E-01	-4.40695440654E+01	-8.32653776916E-01	5.07753123678E-03	1.77901308722E+02
1.18620000000E+07	-1.99517244683E+01	1.01363330462E+02	-4.40301567987E+01	-1.01373971204E+00	-4.40537271532E+01	-1.00978630758E+00	5.13319075805E-03	1.77897788019E+02
1.19000000000E+07	-2.01365162663E+01	1.01415491018E+02	-4.39951792906E+01	-1.11520027654E+00	-4.40201022122E+01	-1.14469023663E+00	5.72620008409E-03	1.77886321860E+02
1.19380000000E+07	-2.03272278632E+01	1.01447480291E+02	-4.39856062608E+01	-1.23120274756E+00	-4.40090712236E+01	-1.33661382902E+00	5.30674776590E-03	1.77876850009E+02
1.19760000000E+07	-2.05198585102E+01	1.01501364897E+02	-4.39595303137E+01	-1.41020320697E+00	-4.39918003941E+01	-1.38094148956E+00	5.79046281400E-03	1.77871339162E+02
1.20140000000E+07	-2.07187813010E+01	1.01544975725E+02	-4.39551735579E+01	-1.54879856929E+00	-4.39670743852E+01	-1.48182799592E+00	5.53645340742E-03	1.77868300684E+02
1.20520000000E+07	-2.09202469742E+01	1.01617395765E+02	-4.39307891919E+01	-1.69574736136E+00	-4.39450817389E+01	-1.65993882569E+00	6.13720071039E-03	1.77860830788E+02
1.20900000000E+07	-2.11281326719E+01	1.01698333492E+02	-4.39103999031E+01	-1.77730049838E+00	-4.39320413478E+01	-1.76317894477E+00	5.80570275075E-03	1.77857736370E+02
1.21280000000E+07	-2.13402871293E+01	1.01773645932E+02	-4.38825656301E+01	-1.93831897872E+00	-4.39114136426E+01	-1.95659036586E+00	5.33345417999E-03	1.77850055019E+02
1.21660000000E+07	-2.15534193120E+01	1.01882626579E+02	-4.38634422303E+01	-2.00310538195E+00	-4.38980085917E+01	-2.06187629433E+00	4.56467373004E-03	1.77841343448E+02
1.22040000000E+07	-2.17763317224E+01	1.01982964426E+02	-4.38516827660E+01	-2.21566988539E+00	-4.38788174887E+01	-2.14964626126E+00	5.31831802166E-03	1.77833828068E+02
1.22420000000E+07	-2.20020217281E+01	1.02114256982E+02	-4.38359225077E+01	-2.30002432904E+00	-4.38531124632E+01	-2.36295967136E+00	4.81270913887E-03	1.77832620348E+02
1.22800000000E+07	-2.22324218742E+01	1.02259303577E+02	-4.38136290886E+01	-2.51082251273E+00	-4.38352857674E+01	-2.47003637554E+00	4.73809859670E-03	1.77822842863E+02
1.23180000000E+07	-2.24711507849E+01	1.02403176688E+02	-4.37883123525E+01	-2.54169325224E+00	-4.38185080690E+01	-2.58573361927E+00	5.48047650026E-03	1.77812068003E+02
1.23560000000E+07	-2.27164465440E+01	1.02563093662E+02	-4.37653351173E+01	-2.66321197342E+00	-4.37963556064E+01	-2.73271011345E+00	5.12610988991E-03	1.77809077308E+02
1.23940000000E+07	-2.29643535488E+01	1.02748909432E+02	-4.37498265440E+01	-2.83441869801E+00	-4.37765859801E+01	-2.81497358158E+00	4.36664273739E-03	1.77803563530E+02
1.24320000000E+07	-2.32237793808E+01	1.02969077734E+02	-4.37330128074E+01	-2.95361874489E+00	-4.37647119857E+01	-2.93371663535E+00	4.65080776519E-03	1.77793210041E+02
1.24700000000E+07	-2.34874724609E+01	1.03180635258E+02	-4.37046117798E+01	-3.08719438818E+00	-4.37368127557E+01	-3.11039833371E+00	4.01338591344E-03	1.77786274160E+02
1.25080000000E+07	-2.37603342211E+01	1.03424204258E+02	-4.36951219625E+01	-3.26033065713E+00	-4.37233277389E+01	-3.27329503085E+00	5.22255594320E-03	1.77781998717E+02
1.25460000000E+07	-2.40405039265E+01	1.03714682339E+02	-4.36700690201E+01	-3.27987716587E+00	-4.36956301189E+01	-3.37915909460E+00	4.53396120742E-03	1.77768842641E+02
1.25840000000E+07	-2.43242996758E+01	1.04003241735E+02	-4.36473325430E+01	-3.50193783906E+00	-4.36746849922E+01	-3.50020995941E+00	4.90576538648E-03	1.77771819906E+02
1.26220000000E+07	-2.46310405180E+01	1.04313924840E+02	-4.36358056072E+01	-3.58327467870E+00	-4.36593806153E+01	-3.65786875292E+00	4.72208364083E-03	1.77767244781E+02
1.26600000000E+07	-2.49302971442E+01	1.04670686751E+02	-4.36128270244E+01	-3.78029980401E+00	-4.36476236978E+01	-3.75150454423E+00	4.33868899520E-03	1.77756257811E+02
1.26980000000E+07	-2.52495097106E+01	1.05109941275E+02	-4.35901380490E+01	-3.86652257482E+00	-4.36193820315E+01	-3.84588656453E+00	5.13137184558E-03	1.77752445176E+02
1.27360000000E+07	-2.55736113985E+01	1.05499742102E+02	-4.35717233542E+01	-3.95360891665E+00	-4.35975807275E+01	-3.96070101948E+00	5.00583495155E-03	1.77748765676E+02
1.27740000000E+07	-2.59177955959E+01	1.06010384490E+02	-4.35529926591E+01	-4.15161336714E+00	-4.35753382899E+01	-4.10531303285E+00	4.42511704689E-03	1.77743857565E+02
1.28120000000E+07	-2.62707198185E+01	1.06559461646E+02	-4.35336512649E+01	-4.25591320456E+00	-4.35533339858E+01	-4.27288234891E+00	4.17814332990E-03	1.77733633005E+02
1.28500000000E+07	-2.66378864634E+01	1.07106478710E+02	-4.35055421984E+01	-4.38222037946E+00	-4.35330462923E+01	-4.42212703349E+00	4.44512590698E-03	1.77723153259E+02
1.28880000000E+07	-2.70117808736E+01	1.07830821477E+02	-4.34811771989E+01	-4.55162772912E+00	-4.35172880807E+01	-4.51592945555E+00	4.72516563744E-03	1.77717981966E+02
1.29260000000E+07	-2.74048335625E+01	1.08532580191E+02	-4.34708661186E+01	-4.70216970375E+00	-4.34965495855E+01	-4.67427763278E+00	3.41453515502E-03	1.77712954918E+02
1.29640000000E+07	-2.78207166099E+01	1.09314464735E+02	-4.34578548004E+01	-4.77120101069E+00	-4.34697785035E+01	-4.80775064168E+00	5.15697805528E-03	1.77701098660E+02
1.30020000000E+07	-2.82449534385E+01	1.10249750806E+02	-4.34349211100E+01	-4.86770971127E+00	-4.34586893285E+01	-4.87439376240E+00	4.32918927088E-03	1.77698832309E+02
1.30400000000E+07	-2.86966401559E+01	1.11281962265E+02	-4.34087853648E+01	-5.06237748253E+00	-4.34400201627E+01	-5.04119488061E+00	5.06791903299E-03	1.77687144159E+02
1.30780000000E+07	-2.91609042314E+01	1.12362436613E+02	-4.33961825164E+01	-5.16550390735E+00	-4.34196783391E+01	-5.16222755399E+00	4.03840666234E-03	1.77687391402E+02
1.31160000000E+07	-2.96445797279E+01	1.13686074654E+02	-4.33673204382E+01	-5.32171531675E+00	-4.33971429181E+01	-5.31003238012E+00	4.45636737984E-03	1.77674036024E+02
1.31540000000E+07	-3.01548114622E+01	1.15002397190E+02	-4.33390178615E+01	-5.45387095596E+00	-4.33878556388E+01	-5.44128706779E+00	4.70699450670E-03	1.77658097299E+02
1.31920000000E+07	-3.06943659687E+01	1.16753695725E+02	-4.33311920760E+01	-5.57356264072E+00	-4.33530492738E+01	-5.58355535292E+00	4.71348738896E-03	1.77658402007E+02
1.32300000000E+07	-3.12574080566E+01	1.18750158899E+02	-4.33041744224E+01	-5.74290814553E+00	-4.33353840127E+01	-5.66032344448E+00	3.92736657573E-03	1.77653038749E+02
1.32680000000E+07	-3.18319544175E+01	1.20932886005E+02	-4.32857571106E+01	-5.85161535966E+00	-4.33241741139E+01	-5.86791102988E+00	4.10871351448E-03	1.77644641567E+02
1.33060000000E+07	-3.24512880209E+01	1.23476013869E+02	-4.32647761105E+01	-5.96165781237E+00	-4.32910756687E+01	-5.92251210285E+00	3.82900885082E-03	1.77642181827E+02
1.33440000000E+07	-3.30758996224E+01	1.26444769576E+02	-4.32455468805E+01	-6.03691441760E+00	-4.32748629660E+01	-6.05137086687E+00	4.40150723572E-03	1.77631662550E+02
1.33820000000E+07	-3.37135610236E+01	1.29829824124E+02	-4.32253015598E+01	-6.17110636441E+00	-4.32540429145E+01	-6.21111021299E+00	4.07040402555E-03	1.77635480442E+02
1.34200000000E+07	-3.43541466790E+01	1.33823107567E+02	-4.32004721961E+01	-6.36839874706E+00	-4.32296818041E+01	-6.29558163374E+00	4.03032435722E-03	1.77630584559E+02
1.34580000000E+07	-3.50359283299E+01	1.38447634390E+02	-4.31746155618E+01	-6.46960887300E+00	-4.32187503520E+01	-6.46017680363E+00	3.89218009356E-03	1.77613019574E+02
1.34960000000E+07	-3.56681642335E+01	1.44293853335E+02	-4.31633650649E+01	-6.57493118088E+00	-4.31960298735E+01	-6.57320596208E+00	4.43418732645E-03	1.77610846734E+02
1.35340000000E+07	-3.62349993744E+01	1.50507926994E+02	-4.31363712166E+01	-6.68586105438E+00	-4.31668591635E+01	-6.71515228768E+00	3.87261843106E-03	1.77607103371E+02
1.35720000000E+07	-3.67166142704E+01	1.57532644388E+02	-4.31222595478E+01	-6.89658638194E+00	-4.31536949825E+01	-6.89532420761E+00	2.91932619002E-03	1.77594537689E+02
1.36100000000E+07	-3.70525180036E+01	1.65295819042E+02	-4.30959000324E+01	-6.98062218605E+00	-4.31256913710E+01	-6.99101926647E+00	4.03396971609E-03	1.77587038078E+02
1.36480000000E+07	-3.72339972228E+01	1.73501971667E+02	-4.30792722483E+01	-7.11883026000E+00	-4.31078475076E+01	-7.13084574671E+00	2.98899637301E-03	1.77584793828E+02
1.36860000000E+07	-3.72223473489E+01	-1.78070394700E+02	-4.30573698838E+01	-7.28004521436E+00	-4.30856441466E+01	-7.29066622515E+00	4.38403563647E-03	1.77579445910E+02
1.37240000000E+07	-3.70189099032E+01	-1.69881951649E+02	-4.30321186500E+01	-7.36325629572E+00	-4.30679071787E+01	-7.32910570734E+00	4.41290481626E-03	1.77564568080E+02
1.37620000000E+07	-3.66493506718E+01	-1.62206764713E+02	-4.30075885846E+01	-7.49876025290E+00	-4.30488586490E+01	-7.46963299304E+00	3.06445929618E-03	1.77566366393E+02
1.38000000000E+07	-3.61763362326E+01	-1.55290665529E+02	-4.30011732017E+01	-7.65902284036E+00	-4.30204763175E+01	-7.61679691693E+00	3.18422013249E-03	1.77550493030E+02
1.38380000000E+07	-3.55981271073E+01	-1.49194774957E+02	-4.29692865982E+01	-7.74889996555E+00	-4.30085152136E+01	-7.77079765833E+00	3.65702240410E-03	1.77548270928E+02
1.38760000000E+07	-3.49773577488E+01	-1.43873358359E+02	-4.29524271950E+01	-7.90662257151E+00	-4.29845249177E+01	-7.84802340905E+00	3.31663608194E-03	1.77541015201E+02
1.39140000000E+07	-3.43413269558E+01	-1.39308229077E+02	-4.29294599827E+01	-8.00346304678E+00	-4.29634187619E+01	-7.99024972394E+00	3.21164433478E-03	1.77536385260E+02
1.39520000000E+07	-3.36933839257E+01	-1.35394211783E+02	-4.29103313666E+01	-8.18587734113E+00	-4.29362514611E+01	-8.13064812259E+00	3.32942585737E-03	1.77530441118E+02
1.39900000000E+07	-3.30596735449E+01	-1.32048688958E+02	-4.28775729040E+01	-8.26824079551E+00	-4.29234069581E+01	-8.18351690694E+00	2.71642528626E-03	1.77526698423E+02
1.40280000000E+07	-3.24427450875E+01	-1.29166411772E+02	-4.28606285075E+01	-8.40417355170E+00	-4.28948065459E+01	-8.33365742223E+00	2.57350783490E-03	1.77517885019E+02
1.40660000000E+07	-3.18442851017E+01	-1.26607930791E+02	-4.28497265881E+01	-8.55947802643E+00	-4.28792074427E+01	-8.51789625252E+00	2.68287440994E-03	1.77511241295E+02
1.41040000000E+07	-3.12759245024E+01	-1.24469365936E+02	-4.28245081309E+01	-8.67025527721E+00	-4.28572431773E+01	-8.62508271853E+00	2.28834779189E-03	1.77507839367E+02
1.41420000000E+07	-3.07268001874E+01	-1.22571700544E+02	-4.27940319204E+01	-8.76943383415E+00	-4.28341770580E+01	-8.81069478857E+00	2.82876739431E-03	1.77499335549E+02
1.41800000000E+07	-3.02015231361E+01	-1.20926393375E+02	-4.27847671126E+01	-8.88246442192E+00	-4.28136552143E+01	-8.91120977277E+00	2.44792426630E-03	1.77490917299E+02
1.42180000000E+07	-2.96971796047E+01	-1.19456711056E+02	-4.27626719643E+01	-9.05518323529E+00	-4.27889704218E+01	-8.98133423317E+00	2.83471708039E-03	1.77481834511E+02
1.42560000000E+07	-2.91736757444E+01	-1.18002016085E+02	-4.27437357921E+01	-9.20889376962E+00	-4.27653451335E+01	-9.05976563889E+00	2.16991208507E-03	1.77485665753E+02
1.42940000000E+07	-2.87151685910E+01	-1.16775131511E+02	-4.27168386789E+01	-9.24290710160E+00	-4.27451423986E+01	-9.23055742354E+00	3.04898596572E-03	1.77472343508E+02
1.43320000000E+07	-2.82677647758E+01	-1.15792175652E+02	-4.26825726427E+01	-9.42274549583E+00	-4.27293441547E+01	-9.40517240543E+00	2.31227088455E-03	1.77463704972E+02
1.43700000000E+07	-2.78463367413E+01	-1.14904898234E+02	-4.26736696766E+01	-9.52354709969E+00	-4.27105268208E+01	-9.54027364910E+00	2.76428926014E-03	1.77457993401E+02
1.44080000000E+07	-2.74331738086E+01	-1.14129567251E+02	-4.26449500260E+01	-9.67257078180E+00	-4.26832234053E+01	-9.65439487807E+00	3.17653670872E-03	1.77451399940E+02
1.44460000000E+07	-2.70385511247E+01	-1.13338588595E+02	-4.26326912395E+01	-9.78269482698E+00	-4.26610943851E+01	-9.77297571660E+00	2.07031335414E-03	1.77443095367E+02
1.44840000000E+07	-2.66687679816E+01	-1.12735701448E+02	-4.26055270551E+01	-9.96744402490E+00	-4.26359037578E+01	-9.91987683537E+00	2.52548585345E-03	1.77437372040E+02
