# Hz S DB R 50
! CMT, S5243, 23023023, 22.3.3/5
! Date: 6/29/2023 10:13:32 AM
! Data: Format (Calibration Info)
! Freq	S11:dB/Ang(F2)	S21:dB/Ang(F2)	S12:dB/Ang(F2)	S22:dB/Ang(F2)
1.00000000000E+07	-3.00641097241E+01	-2.91882506686E+01	-1.92793075434E-01	-6.55741359244E+01	-1.96369683440E-01	-6.55971760749E+01	-3.34129403161E+01	1.20780124169E+01
1.00380000000E+07	-3.00245879117E+01	-2.93057308398E+01	-1.92777763950E-01	-6.58216529350E+01	-1.95834558562E-01	-6.58524779736E+01	-3.33702565647E+01	1.20869716852E+01
1.00760000000E+07	-2.99933721230E+01	-2.94774657626E+01	-1.93124240217E-01	-6.60655565479E+01	-1.95663411524E-01	-6.60999417804E+01	-3.33028332787E+01	1.19518616573E+01
1.01140000000E+07	-2.99611966599E+01	-2.96700150383E+01	-1.93120882827E-01	-6.63091485778E+01	-1.95821589521E-01	-6.63449427635E+01	-3.32744555759E+01	1.18345877499E+01
1.01520000000E+07	-2.99231542464E+01	-2.98188421646E+01	-1.94130487354E-01	-6.65575150041E+01	-1.95644661460E-01	-6.66002894302E+01	-3.32176077395E+01	1.17648375340E+01
1.01900000000E+07	-2.98902568219E+01	-2.99785939100E+01	-1.93769893197E-01	-6.68067455409E+01	-1.97021113733E-01	-6.68469161441E+01	-3.31856228524E+01	1.16487849069E+01
1.02280000000E+07	-2.98577361512E+01	-3.00627096101E+01	-1.96118696574E-01	-6.70492714014E+01	-1.97285691266E-01	-6.70945298880E+01	-3.31396828827E+01	1.17383544214E+01
1.02660000000E+07	-2.98197010502E+01	-3.02684832626E+01	-1.94884452930E-01	-6.73019025639E+01	-1.98959002546E-01	-6.73403394442E+01	-3.31039927279E+01	1.16163526164E+01
1.03040000000E+07	-2.97828878950E+01	-3.03774279161E+01	-1.95834591017E-01	-6.75481470463E+01	-1.98904139501E-01	-6.75785291541E+01	-3.30536638151E+01	1.14709011876E+01
1.03420000000E+07	-2.97527498792E+01	-3.05346688569E+01	-1.96050792572E-01	-6.77902650439E+01	-1.98601117893E-01	-6.78296897178E+01	-3.29998439036E+01	1.14405771243E+01
1.03800000000E+07	-2.97149257692E+01	-3.07038126687E+01	-1.95683502233E-01	-6.80487126690E+01	-1.99496735527E-01	-6.80715746396E+01	-3.29635493035E+01	1.13344518150E+01
1.04180000000E+07	-2.96783008108E+01	-3.08370132234E+01	-1.97143551375E-01	-6.82936654821E+01	-1.99148787026E-01	-6.83302276050E+01	-3.29068300615E+01	1.12946252102E+01
1.04560000000E+07	-2.96479097654E+01	-3.09954145164E+01	-1.96992816139E-01	-6.85302939697E+01	-1.99037289956E-01	-6.85804568291E+01	-3.28490547770E+01	1.11584984185E+01
1.04940000000E+07	-2.96142725042E+01	-3.11042107057E+01	-1.97150674225E-01	-6.87882139583E+01	-2.01174910752E-01	-6.88245771030E+01	-3.28154436293E+01	1.11069800339E+01
1.05320000000E+07	-2.95730896009E+01	-3.13204318745E+01	-1.97218884684E-01	-6.90317532996E+01	-2.01278747686E-01	-6.90616589261E+01	-3.27723097121E+01	1.09346240724E+01
1.05700000000E+07	-2.95436529671E+01	-3.14278723876E+01	-1.98691835568E-01	-6.92748109452E+01	-2.01452144911E-01	-6.93157101909E+01	-3.27218766335E+01	1.08378906375E+01
1.06080000000E+07	-2.95069888915E+01	-3.15894949844E+01	-1.98140396951E-01	-6.95175220359E+01	-2.00495703030E-01	-6.95656503184E+01	-3.26783646535E+01	1.07655224836E+01
1.06460000000E+07	-2.94734653650E+01	-3.17603391292E+01	-1.98108008081E-01	-6.97703386013E+01	-2.02645658086E-01	-6.98112344020E+01	-3.26460525811E+01	1.07051153897E+01
1.06840000000E+07	-2.94342633239E+01	-3.18529974403E+01	-1.99034745062E-01	-7.00126242046E+01	-2.02066866263E-01	-7.00536854859E+01	-3.26028234190E+01	1.06108942520E+01
1.07220000000E+07	-2.94065392271E+01	-3.19985141589E+01	-1.99427403613E-01	-7.02528544954E+01	-2.03086128741E-01	-7.02960346213E+01	-3.25414480718E+01	1.04867718919E+01
1.07600000000E+07	-2.93658989866E+01	-3.22008975676E+01	-1.99701862572E-01	-7.05101884090E+01	-2.03676149982E-01	-7.05383206706E+01	-3.24965224386E+01	1.04908369006E+01
1.07980000000E+07	-2.93273897404E+01	-3.22992940767E+01	-1.99860199395E-01	-7.07526876454E+01	-2.04519801331E-01	-7.07876382942E+01	-3.24512986926E+01	1.02199163348E+01
1.08360000000E+07	-2.92994112133E+01	-3.24663497712E+01	-2.00181662068E-01	-7.10046167206E+01	-2.04161693260E-01	-7.10423833627E+01	-3.24066148701E+01	1.01989029055E+01
1.08740000000E+07	-2.92645056636E+01	-3.26206149904E+01	-2.01796857602E-01	-7.12456382637E+01	-2.04240826144E-01	-7.12817149321E+01	-3.23647424954E+01	1.01638824986E+01
1.09120000000E+07	-2.92330325590E+01	-3.27387953249E+01	-2.02510853019E-01	-7.14947081023E+01	-2.05679442660E-01	-7.15295424933E+01	-3.23053219234E+01	1.00454812199E+01
1.09500000000E+07	-2.91962823627E+01	-3.28713275509E+01	-2.02255762913E-01	-7.17491671274E+01	-2.06334966426E-01	-7.17706195168E+01	-3.22542818821E+01	9.94028931549E+00
1.09880000000E+07	-2.91604275879E+01	-3.30551389560E+01	-2.03756487761E-01	-7.19973219729E+01	-2.06055016216E-01	-7.20262297498E+01	-3.22148010232E+01	9.97562455428E+00
1.10260000000E+07	-2.91286986593E+01	-3.31773471669E+01	-2.03990816841E-01	-7.22420060404E+01	-2.06576772458E-01	-7.22757008737E+01	-3.21770505901E+01	9.77845627402E+00
1.10640000000E+07	-2.90945597415E+01	-3.33280199404E+01	-2.02746004486E-01	-7.24848530398E+01	-2.06000129392E-01	-7.25094256916E+01	-3.21160121412E+01	9.65128783265E+00
1.11020000000E+07	-2.90570057314E+01	-3.34567494446E+01	-2.05222788402E-01	-7.27285097664E+01	-2.07432396806E-01	-7.27579945569E+01	-3.20980290725E+01	9.58198398347E+00
1.11400000000E+07	-2.90232916442E+01	-3.36033718946E+01	-2.05462211092E-01	-7.29680886090E+01	-2.07860337882E-01	-7.30003360525E+01	-3.20335227734E+01	9.31597040115E+00
1.11780000000E+07	-2.89898655235E+01	-3.37058436399E+01	-2.05481835253E-01	-7.32204745759E+01	-2.09078025174E-01	-7.32577370646E+01	-3.19956390016E+01	9.25479056280E+00
1.12160000000E+07	-2.89535674148E+01	-3.39091948134E+01	-2.06305054571E-01	-7.34740467858E+01	-2.09457395478E-01	-7.34824717616E+01	-3.19394855763E+01	9.32853855307E+00
1.12540000000E+07	-2.89271300464E+01	-3.40075948950E+01	-2.06261988945E-01	-7.37111040159E+01	-2.09418592886E-01	-7.37411461357E+01	-3.18758692112E+01	9.09209036154E+00
1.12920000000E+07	-2.88860986034E+01	-3.41761348246E+01	-2.06643364978E-01	-7.39677345559E+01	-2.10177470839E-01	-7.39933676794E+01	-3.18496191524E+01	9.07680250423E+00
1.13300000000E+07	-2.88531981620E+01	-3.42684943768E+01	-2.06949202892E-01	-7.42081615512E+01	-2.10435453118E-01	-7.42411138198E+01	-3.18054468532E+01	8.87693447004E+00
1.13680000000E+07	-2.88219530753E+01	-3.44935573620E+01	-2.07672272516E-01	-7.44597739264E+01	-2.10759515373E-01	-7.44887030273E+01	-3.17737866564E+01	8.80668701620E+00
1.14060000000E+07	-2.87893434487E+01	-3.45693082401E+01	-2.08587518598E-01	-7.47013459268E+01	-2.10615913364E-01	-7.47295486064E+01	-3.17160643285E+01	8.65094800279E+00
1.14440000000E+07	-2.87509047058E+01	-3.46834565944E+01	-2.08432163931E-01	-7.49507773441E+01	-2.10988149403E-01	-7.49960218505E+01	-3.16748224228E+01	8.59692281715E+00
1.14820000000E+07	-2.87205378084E+01	-3.48587468355E+01	-2.09177483856E-01	-7.51974489115E+01	-2.12316583440E-01	-7.52350174155E+01	-3.16171570165E+01	8.39967290990E+00
1.15200000000E+07	-2.86987154295E+01	-3.50140591398E+01	-2.09592762237E-01	-7.54419674560E+01	-2.11756190321E-01	-7.54760455439E+01	-3.15898763344E+01	8.29593617758E+00
1.15580000000E+07	-2.86513902823E+01	-3.51195356447E+01	-2.09268826880E-01	-7.56878902997E+01	-2.13174594544E-01	-7.57264654305E+01	-3.15233156122E+01	8.19525047435E+00
1.15960000000E+07	-2.86191621843E+01	-3.53038216773E+01	-2.09672121368E-01	-7.59460230225E+01	-2.12971804513E-01	-7.59769704949E+01	-3.14853505388E+01	8.02046929372E+00
1.16340000000E+07	-2.85865236713E+01	-3.54412394393E+01	-2.10989889508E-01	-7.61840540924E+01	-2.13833270762E-01	-7.62220622223E+01	-3.14259740729E+01	7.85933722706E+00
1.16720000000E+07	-2.85602702755E+01	-3.55950800998E+01	-2.11134479773E-01	-7.64333383774E+01	-2.13224632150E-01	-7.64647640545E+01	-3.13899462588E+01	7.76470167975E+00
1.17100000000E+07	-2.85217935109E+01	-3.56691485311E+01	-2.11027574325E-01	-7.66776600735E+01	-2.13221718104E-01	-7.67098512044E+01	-3.13425987675E+01	7.60907806420E+00
1.17480000000E+07	-2.84887129334E+01	-3.58517693455E+01	-2.11667402548E-01	-7.69178327554E+01	-2.15414237555E-01	-7.69596076735E+01	-3.13037314075E+01	7.51457534177E+00
1.17860000000E+07	-2.84605862539E+01	-3.59915114947E+01	-2.12959316464E-01	-7.71684207538E+01	-2.14509498533E-01	-7.72130560539E+01	-3.12581315650E+01	7.46323530605E+00
1.18240000000E+07	-2.84274512385E+01	-3.61109636481E+01	-2.13283421262E-01	-7.74215918968E+01	-2.14661430864E-01	-7.74554406419E+01	-3.12045118726E+01	7.30512956753E+00
1.18620000000E+07	-2.83965034568E+01	-3.62324529465E+01	-2.13334528055E-01	-7.76662475056E+01	-2.16364911753E-01	-7.76970981262E+01	-3.11545718238E+01	7.12376345671E+00
1.19000000000E+07	-2.83632874126E+01	-3.63858658081E+01	-2.14455076772E-01	-7.79140696937E+01	-2.15495733328E-01	-7.79513821747E+01	-3.11220418283E+01	7.06669869959E+00
1.19380000000E+07	-2.83244213341E+01	-3.65316572100E+01	-2.12655478146E-01	-7.81561838173E+01	-2.16254794671E-01	-7.81994892484E+01	-3.10704690147E+01	6.86736085253E+00
1.19760000000E+07	-2.82917606830E+01	-3.67141241772E+01	-2.14038474084E-01	-7.83982086965E+01	-2.18127176029E-01	-7.84328790950E+01	-3.10142473798E+01	6.71227467568E+00
1.20140000000E+07	-2.82615678476E+01	-3.68138631812E+01	-2.14196880796E-01	-7.86594227799E+01	-2.17959329635E-01	-7.86723526802E+01	-3.09667347393E+01	6.60902422883E+00
1.20520000000E+07	-2.82274517427E+01	-3.69305927495E+01	-2.14426459334E-01	-7.89020429279E+01	-2.17705260032E-01	-7.89131852826E+01	-3.09297461450E+01	6.51819080336E+00
1.20900000000E+07	-2.81960180690E+01	-3.70402548985E+01	-2.14421080176E-01	-7.91391927788E+01	-2.18435386282E-01	-7.91526910682E+01	-3.08828755030E+01	6.44779598974E+00
1.21280000000E+07	-2.81666540875E+01	-3.71839991744E+01	-2.15624456008E-01	-7.93970656773E+01	-2.19785283917E-01	-7.94124020474E+01	-3.08500844734E+01	6.21221532754E+00
1.21660000000E+07	-2.81267129492E+01	-3.73062383161E+01	-2.15393284199E-01	-7.96359956928E+01	-2.20482173988E-01	-7.96637977229E+01	-3.07998579971E+01	6.06424030240E+00
1.22040000000E+07	-2.80949817940E+01	-3.74432334090E+01	-2.16783283681E-01	-7.98836646748E+01	-2.20651919129E-01	-7.99097320809E+01	-3.07484370709E+01	5.99165883702E+00
1.22420000000E+07	-2.80702470439E+01	-3.75988668829E+01	-2.17146467673E-01	-8.01340112424E+01	-2.20401694782E-01	-8.01578003626E+01	-3.07049434142E+01	5.80316883954E+00
1.22800000000E+07	-2.80293740112E+01	-3.76715404903E+01	-2.17165022312E-01	-8.03747969376E+01	-2.20670995088E-01	-8.04018858421E+01	-3.06528172767E+01	5.68650336143E+00
1.23180000000E+07	-2.80024198207E+01	-3.78537764349E+01	-2.17339213847E-01	-8.06126792454E+01	-2.20079451382E-01	-8.06502863427E+01	-3.06047761115E+01	5.62756640736E+00
1.23560000000E+07	-2.79673039272E+01	-3.79995397481E+01	-2.17362436160E-01	-8.08598732346E+01	-2.20971078867E-01	-8.08968834102E+01	-3.05627415740E+01	5.44887582384E+00
1.23940000000E+07	-2.79400905401E+01	-3.81309237017E+01	-2.18213437301E-01	-8.11123041828E+01	-2.22716936242E-01	-8.11446271615E+01	-3.05265975422E+01	5.24991632743E+00
1.24320000000E+07	-2.79096505312E+01	-3.82500813618E+01	-2.19289618198E-01	-8.13594779369E+01	-2.23302692205E-01	-8.13901741467E+01	-3.04775720907E+01	5.09368291640E+00
1.24700000000E+07	-2.78734158243E+01	-3.83705836384E+01	-2.18561701185E-01	-8.16120471177E+01	-2.22359415227E-01	-8.16330298199E+01	-3.04342125277E+01	4.91187021656E+00
1.25080000000E+07	-2.78425117808E+01	-3.85124639799E+01	-2.19477297295E-01	-8.18466544994E+01	-2.23427042402E-01	-8.18906324641E+01	-3.03857264424E+01	4.82340144762E+00
1.25460000000E+07	-2.78077587722E+01	-3.86760545768E+01	-2.18610204103E-01	-8.21017371977E+01	-2.24077348640E-01	-8.21298593239E+01	-3.03331847421E+01	4.64235176585E+00
1.25840000000E+07	-2.77774617584E+01	-3.88101351280E+01	-2.19604917400E-01	-8.23567683585E+01	-2.24063997620E-01	-8.23750518275E+01	-3.02827072055E+01	4.49637361981E+00
1.26220000000E+07	-2.77458050245E+01	-3.89195266315E+01	-2.20073420152E-01	-8.25952370402E+01	-2.24602830197E-01	-8.26202836705E+01	-3.02421711599E+01	4.38097434823E+00
1.26600000000E+07	-2.77129060126E+01	-3.90771140696E+01	-2.20147757840E-01	-8.28440218065E+01	-2.24045632588E-01	-8.28663645814E+01	-3.02002004059E+01	4.19826780462E+00
1.26980000000E+07	-2.76806086508E+01	-3.91771371093E+01	-2.21223661505E-01	-8.30841055754E+01	-2.23690137850E-01	-8.31207560486E+01	-3.01617446610E+01	4.14260816283E+00
1.27360000000E+07	-2.76524670271E+01	-3.92722490662E+01	-2.20837782167E-01	-8.33400541595E+01	-2.25156727190E-01	-8.33661832043E+01	-3.01179290861E+01	3.96225776042E+00
1.27740000000E+07	-2.76193248127E+01	-3.94356959973E+01	-2.22276114679E-01	-8.35919126891E+01	-2.25362071679E-01	-8.36050890502E+01	-3.00691731573E+01	3.73579109179E+00
1.28120000000E+07	-2.75868631335E+01	-3.95511474156E+01	-2.22566075016E-01	-8.38277019140E+01	-2.25809251821E-01	-8.38570033151E+01	-3.00078035082E+01	3.63701739600E+00
1.28500000000E+07	-2.75615691894E+01	-3.97328266984E+01	-2.22574565158E-01	-8.40885142564E+01	-2.26234334935E-01	-8.41116986588E+01	-2.99741400443E+01	3.49274339486E+00
1.28880000000E+07	-2.75327006757E+01	-3.98457150256E+01	-2.22989815192E-01	-8.43285376607E+01	-2.25858334207E-01	-8.43567097632E+01	-2.99273866884E+01	3.23280156108E+00
1.29260000000E+07	-2.75037629952E+01	-3.99530402527E+01	-2.24050278221E-01	-8.45781406969E+01	-2.26308955125E-01	-8.45969713080E+01	-2.98836467075E+01	3.13928349002E+00
1.29640000000E+07	-2.74645496341E+01	-4.00768060561E+01	-2.23546660062E-01	-8.48114736780E+01	-2.27046140403E-01	-8.48365317238E+01	-2.98406004799E+01	2.94474073019E+00
1.30020000000E+07	-2.74354688046E+01	-4.02201832786E+01	-2.24280484672E-01	-8.50630039901E+01	-2.27794235270E-01	-8.50829481673E+01	-2.97901795536E+01	2.92263179752E+00
1.30400000000E+07	-2.74087328715E+01	-4.03778426964E+01	-2.26066371750E-01	-8.53042986754E+01	-2.27761410181E-01	-8.53318329001E+01	-2.97527759306E+01	2.69903106457E+00
1.30780000000E+07	-2.73664389660E+01	-4.04974782447E+01	-2.24830049540E-01	-8.55416419831E+01	-2.29542632252E-01	-8.55742936954E+01	-2.96850777038E+01	2.55519871065E+00
1.31160000000E+07	-2.73418354950E+01	-4.06089283882E+01	-2.26782414356E-01	-8.57951048421E+01	-2.29124428885E-01	-8.58198921498E+01	-2.96469091493E+01	2.34606816055E+00
1.31540000000E+07	-2.73053012643E+01	-4.07616241351E+01	-2.26012158038E-01	-8.60403157979E+01	-2.30661063200E-01	-8.60701397352E+01	-2.96133790692E+01	2.14835132464E+00
1.31920000000E+07	-2.72818954176E+01	-4.08943627047E+01	-2.26333233946E-01	-8.62768898602E+01	-2.29473707817E-01	-8.63141018167E+01	-2.95655431939E+01	1.99350930933E+00
1.32300000000E+07	-2.72481069671E+01	-4.10599234521E+01	-2.26344271970E-01	-8.65288212076E+01	-2.29709654283E-01	-8.65600916090E+01	-2.95247420269E+01	1.88137334214E+00
1.32680000000E+07	-2.72215269310E+01	-4.11611161339E+01	-2.27124816556E-01	-8.67809743837E+01	-2.29376200407E-01	-8.68159974739E+01	-2.94841457269E+01	1.63418435577E+00
1.33060000000E+07	-2.71956458108E+01	-4.13131139625E+01	-2.28689479954E-01	-8.70315489220E+01	-2.30858499212E-01	-8.70626209843E+01	-2.94462160748E+01	1.56121186298E+00
1.33440000000E+07	-2.71550411318E+01	-4.14036028516E+01	-2.27891247203E-01	-8.72757418601E+01	-2.31587866865E-01	-8.73016060921E+01	-2.94007464311E+01	1.28760144222E+00
1.33820000000E+07	-2.71280442451E+01	-4.15140192317E+01	-2.27953012007E-01	-8.75154567804E+01	-2.32057698812E-01	-8.75500496389E+01	-2.93517974683E+01	1.16437929057E+00
1.34200000000E+07	-2.71003319366E+01	-4.16637696726E+01	-2.28675899335E-01	-8.77723944364E+01	-2.31181195378E-01	-8.77982401136E+01	-2.93149460018E+01	9.61405111165E-01
1.34580000000E+07	-2.70665555604E+01	-4.17783263232E+01	-2.30370916971E-01	-8.80209970486E+01	-2.32167022376E-01	-8.80409140857E+01	-2.92577399907E+01	7.93573789293E-01
1.34960000000E+07	-2.70366165410E+01	-4.19281758552E+01	-2.28770601761E-01	-8.82644699791E+01	-2.33530416033E-01	-8.82949947519E+01	-2.92251378570E+01	6.87589019320E-01
1.35340000000E+07	-2.70021789220E+01	-4.20418001456E+01	-2.29757165733E-01	-8.85065443187E+01	-2.32681581823E-01	-8.85395165086E+01	-2.91808646801E+01	4.36231219062E-01
1.35720000000E+07	-2.69718256569E+01	-4.21595285345E+01	-2.30918949311E-01	-8.87617939372E+01	-2.32653514179E-01	-8.87894945478E+01	-2.91423856545E+01	3.02284119503E-01
1.36100000000E+07	-2.69428199931E+01	-4.23079728218E+01	-2.31047327358E-01	-8.90033213259E+01	-2.34276577450E-01	-8.90395577232E+01	-2.90821597581E+01	1.35228953632E-01
1.36480000000E+07	-2.69121378951E+01	-4.24390218199E+01	-2.31297479036E-01	-8.92484732961E+01	-2.34439835976E-01	-8.92721507866E+01	-2.90455427266E+01	-3.10084431206E-02
1.36860000000E+07	-2.68809273076E+01	-4.25941598579E+01	-2.31784973053E-01	-8.95001259220E+01	-2.35721982423E-01	-8.95206787285E+01	-2.90089739392E+01	-2.39170881434E-01
1.37240000000E+07	-2.68546345383E+01	-4.27394128607E+01	-2.32259925266E-01	-8.97436084425E+01	-2.34830239666E-01	-8.97688090191E+01	-2.89584498957E+01	-4.66017038848E-01
1.37620000000E+07	-2.68258791491E+01	-4.28303396563E+01	-2.32566318073E-01	-8.99885060724E+01	-2.34928885058E-01	-9.00141563505E+01	-2.89093129117E+01	-5.93421242502E-01
1.38000000000E+07	-2.67939898339E+01	-4.29304972999E+01	-2.33142174393E-01	-9.02392819873E+01	-2.34982945624E-01	-9.02533865405E+01	-2.88838904588E+01	-7.68476107275E-01
1.38380000000E+07	-2.67614051114E+01	-4.30884439198E+01	-2.33713843312E-01	-9.04838994237E+01	-2.36692199170E-01	-9.04995497682E+01	-2.88402304380E+01	-9.86367512776E-01
1.38760000000E+07	-2.67419990721E+01	-4.32562203891E+01	-2.33599162296E-01	-9.07291962854E+01	-2.36777922462E-01	-9.07487624807E+01	-2.88018306783E+01	-1.18616635534E+00
1.39140000000E+07	-2.67059905322E+01	-4.33559908004E+01	-2.33791062145E-01	-9.09683323571E+01	-2.37216368707E-01	-9.09888348795E+01	-2.87563955649E+01	-1.33854011537E+00
1.39520000000E+07	-2.66750338088E+01	-4.34800368799E+01	-2.33528316153E-01	-9.12165253140E+01	-2.38069421663E-01	-9.12327921969E+01	-2.86977916485E+01	-1.49573104828E+00
1.39900000000E+07	-2.66523969712E+01	-4.35930107385E+01	-2.35145844266E-01	-9.14704709084E+01	-2.38156929541E-01	-9.14871257312E+01	-2.86658159974E+01	-1.64575287722E+00
1.40280000000E+07	-2.66190134743E+01	-4.37389761528E+01	-2.35271142057E-01	-9.17227492822E+01	-2.38625093611E-01	-9.17205257043E+01	-2.86153192654E+01	-1.89215741982E+00
1.40660000000E+07	-2.65849636509E+01	-4.38499121374E+01	-2.35343567325E-01	-9.19538415075E+01	-2.39601234694E-01	-9.19756957702E+01	-2.85856598508E+01	-2.09644897428E+00
1.41040000000E+07	-2.65567362186E+01	-4.40143076215E+01	-2.36495582486E-01	-9.22133859707E+01	-2.40069720138E-01	-9.22185156995E+01	-2.85357548663E+01	-2.24464720163E+00
1.41420000000E+07	-2.65280831536E+01	-4.41163401930E+01	-2.36534177290E-01	-9.24576946685E+01	-2.40285351492E-01	-9.24597452969E+01	-2.84954918309E+01	-2.39700262746E+00
1.41800000000E+07	-2.64999273464E+01	-4.42114909896E+01	-2.36824154817E-01	-9.26989706475E+01	-2.40737330397E-01	-9.27154991300E+01	-2.84500335917E+01	-2.67032566004E+00
1.42180000000E+07	-2.64638140039E+01	-4.43673489370E+01	-2.36915884827E-01	-9.29508929695E+01	-2.40938268587E-01	-9.29528490029E+01	-2.84081264611E+01	-2.75749149615E+00
1.42560000000E+07	-2.64425663477E+01	-4.44849447507E+01	-2.38658992772E-01	-9.31949431028E+01	-2.41772552321E-01	-9.31990570621E+01	-2.83707470279E+01	-2.96652660413E+00
1.42940000000E+07	-2.64143113666E+01	-4.46190660111E+01	-2.39129316693E-01	-9.34308202902E+01	-2.41719047918E-01	-9.34442369123E+01	-2.83122247158E+01	-3.18908600582E+00
1.43320000000E+07	-2.63822494495E+01	-4.47305324915E+01	-2.38471241728E-01	-9.36811119373E+01	-2.42458447545E-01	-9.36879983967E+01	-2.82889983344E+01	-3.36086491660E+00
1.43700000000E+07	-2.63535864573E+01	-4.48873651297E+01	-2.38376451917E-01	-9.39315049975E+01	-2.43951779101E-01	-9.39368383781E+01	-2.82421923929E+01	-3.53659226035E+00
1.44080000000E+07	-2.63253507742E+01	-4.50318153392E+01	-2.39287262200E-01	-9.41750904331E+01	-2.42969551123E-01	-9.41888342258E+01	-2.82049842291E+01	-3.72036273543E+00
